Sample in Buffer,Sample in Window,TRIGGER,u_fsm/u_engine/state[2:0],u_fsm/u_engine/inject_en_latch,u_fsm/u_engine/sym_a_latch[15:0],u_fsm/u_engine/dec_out_a[15:0],u_fsm/u_engine/dec_valid_a,u_fsm/u_engine/comp_result_a,u_fsm/u_engine/comp_result_b,u_fsm/u_engine/dec_start,u_fsm/u_engine/comp_latency_a[7:0],u_fsm/u_engine/enc_out_a_latch[40:0],u_fsm/u_engine/inj_out_a_latch[40:0]
Radix - UNSIGNED,UNSIGNED,UNSIGNED,HEX,HEX,HEX,HEX,HEX,HEX,HEX,HEX,HEX,HEX,HEX
0,0,0,"iSTATE",1,284b,cdf0,0,0,0,0,18,0234b1b17a1,023491b17a1
1,1,0,"iSTATE0",1,284b,cdf0,0,0,0,0,18,0234b1b17a1,023491b17a1
2,2,0,"iSTATE1",1,284b,cdf0,0,0,0,0,18,0234b1b17a1,023491b17a1
3,3,0,"iSTATE1",1,284b,cdf0,0,0,0,0,18,0234b1b17a1,023491b17a1
4,4,0,"iSTATE2",1,ef76,cdf0,0,0,0,0,18,0234b1b17a1,023491b17a1
5,5,0,"iSTATE2",1,ef76,cdf0,0,0,0,0,18,0234b1b17a1,023491b17a1
6,6,0,"iSTATE2",1,ef76,cdf0,0,0,0,0,18,0234b1b17a1,023491b17a1
7,7,0,"iSTATE3",1,ef76,cdf0,0,0,0,0,18,08876e81822,023491b17a1
8,8,0,"iSTATE3",1,ef76,cdf0,0,0,0,0,18,08876e81822,023491b17a1
9,9,0,"iSTATE3",1,ef76,cdf0,0,0,0,0,18,08876e81822,023491b17a1
10,10,1,"iSTATE4",1,ef76,cdf0,0,0,0,1,18,08876e81822,08876e81826
11,11,0,"iSTATE4",1,ef76,cdf0,0,0,0,0,18,08876e81822,08876e81826
12,12,0,"iSTATE4",1,ef76,cdf0,0,0,0,0,18,08876e81822,08876e81826
13,13,0,"iSTATE4",1,ef76,cdf0,0,0,0,0,18,08876e81822,08876e81826
14,14,0,"iSTATE4",1,ef76,cdf0,0,0,0,0,18,08876e81822,08876e81826
15,15,0,"iSTATE4",1,ef76,cdf0,0,0,0,0,18,08876e81822,08876e81826
16,16,0,"iSTATE4",1,ef76,cdf0,0,0,0,0,18,08876e81822,08876e81826
17,17,0,"iSTATE4",1,ef76,cdf0,0,0,0,0,18,08876e81822,08876e81826
18,18,0,"iSTATE4",1,ef76,cdf0,0,0,0,0,18,08876e81822,08876e81826
19,19,0,"iSTATE4",1,ef76,cdf0,0,0,0,0,18,08876e81822,08876e81826
20,20,0,"iSTATE4",1,ef76,cdf0,0,0,0,0,18,08876e81822,08876e81826
21,21,0,"iSTATE4",1,ef76,cdf0,0,0,0,0,18,08876e81822,08876e81826
22,22,0,"iSTATE4",1,ef76,cdf0,0,0,0,0,18,08876e81822,08876e81826
23,23,0,"iSTATE4",1,ef76,cdf0,0,0,0,0,18,08876e81822,08876e81826
24,24,0,"iSTATE4",1,ef76,cdf0,0,0,0,0,18,08876e81822,08876e81826
25,25,0,"iSTATE4",1,ef76,cdf0,0,0,0,0,18,08876e81822,08876e81826
26,26,0,"iSTATE4",1,ef76,cdf0,0,0,0,0,18,08876e81822,08876e81826
27,27,0,"iSTATE4",1,ef76,cdf0,0,0,0,0,18,08876e81822,08876e81826
28,28,0,"iSTATE4",1,ef76,cdf0,0,0,0,0,18,08876e81822,08876e81826
29,29,0,"iSTATE4",1,ef76,cdf0,0,0,0,0,18,08876e81822,08876e81826
30,30,0,"iSTATE4",1,ef76,0376,1,0,0,0,18,08876e81822,08876e81826
31,31,0,"iSTATE5",1,ef76,0376,0,0,0,0,18,08876e81822,08876e81826
32,32,0,"iSTATE6",1,ef76,0376,0,0,0,0,18,08876e81822,08876e81826
33,33,0,"iSTATE",1,ef76,0376,0,0,0,0,18,08876e81822,08876e81826
34,34,0,"iSTATE",1,ef76,0376,0,0,0,0,18,08876e81822,08876e81826
35,35,0,"iSTATE0",1,ef76,0376,0,0,0,0,18,08876e81822,08876e81826
36,36,0,"iSTATE1",0,ef76,0376,0,0,0,0,18,08876e81822,08876e81826
37,37,0,"iSTATE1",0,ef76,0376,0,0,0,0,18,08876e81822,08876e81826
38,38,0,"iSTATE2",0,77bb,0376,0,0,0,0,18,08876e81822,08876e81826
39,39,0,"iSTATE2",0,77bb,0376,0,0,0,0,18,08876e81822,08876e81826
40,40,0,"iSTATE2",0,77bb,0376,0,0,0,0,18,08876e81822,08876e81826
41,41,0,"iSTATE3",0,77bb,0376,0,0,0,0,18,044bb75e411,08876e81826
42,42,0,"iSTATE3",0,77bb,0376,0,0,0,0,18,044bb75e411,08876e81826
43,43,0,"iSTATE3",0,77bb,0376,0,0,0,0,18,044bb75e411,08876e81826
44,44,0,"iSTATE4",0,77bb,0376,0,0,0,1,18,044bb75e411,044bb75e411
45,45,0,"iSTATE4",0,77bb,0376,0,0,0,0,18,044bb75e411,044bb75e411
46,46,0,"iSTATE4",0,77bb,0376,0,0,0,0,18,044bb75e411,044bb75e411
47,47,0,"iSTATE4",0,77bb,0376,0,0,0,0,18,044bb75e411,044bb75e411
48,48,0,"iSTATE4",0,77bb,0376,0,0,0,0,18,044bb75e411,044bb75e411
49,49,0,"iSTATE4",0,77bb,0376,0,0,0,0,18,044bb75e411,044bb75e411
50,50,0,"iSTATE4",0,77bb,0376,0,0,0,0,18,044bb75e411,044bb75e411
51,51,0,"iSTATE4",0,77bb,0376,0,0,0,0,18,044bb75e411,044bb75e411
52,52,0,"iSTATE4",0,77bb,0376,0,0,0,0,18,044bb75e411,044bb75e411
53,53,0,"iSTATE4",0,77bb,0376,0,0,0,0,18,044bb75e411,044bb75e411
54,54,0,"iSTATE4",0,77bb,0376,0,0,0,0,18,044bb75e411,044bb75e411
55,55,0,"iSTATE4",0,77bb,0376,0,0,0,0,18,044bb75e411,044bb75e411
56,56,0,"iSTATE4",0,77bb,0376,0,0,0,0,18,044bb75e411,044bb75e411
57,57,0,"iSTATE4",0,77bb,0376,0,0,0,0,18,044bb75e411,044bb75e411
58,58,0,"iSTATE4",0,77bb,0376,0,0,0,0,18,044bb75e411,044bb75e411
59,59,0,"iSTATE4",0,77bb,0376,0,0,0,0,18,044bb75e411,044bb75e411
60,60,0,"iSTATE4",0,77bb,0376,0,0,0,0,18,044bb75e411,044bb75e411
61,61,0,"iSTATE4",0,77bb,0376,0,0,0,0,18,044bb75e411,044bb75e411
62,62,0,"iSTATE4",0,77bb,0376,0,0,0,0,18,044bb75e411,044bb75e411
63,63,0,"iSTATE4",0,77bb,0376,0,0,0,0,18,044bb75e411,044bb75e411
64,64,0,"iSTATE4",0,77bb,b2bb,1,0,0,0,18,044bb75e411,044bb75e411
65,65,0,"iSTATE5",0,77bb,b2bb,0,0,0,0,18,044bb75e411,044bb75e411
66,66,0,"iSTATE6",0,77bb,b2bb,0,0,0,0,18,044bb75e411,044bb75e411
67,67,0,"iSTATE",0,77bb,b2bb,0,0,0,0,18,044bb75e411,044bb75e411
68,68,0,"iSTATE",0,77bb,b2bb,0,0,0,0,18,044bb75e411,044bb75e411
69,69,0,"iSTATE0",0,77bb,b2bb,0,0,0,0,18,044bb75e411,044bb75e411
70,70,0,"iSTATE1",0,77bb,b2bb,0,0,0,0,18,044bb75e411,044bb75e411
71,71,0,"iSTATE1",0,77bb,b2bb,0,0,0,0,18,044bb75e411,044bb75e411
72,72,0,"iSTATE2",0,3bdd,b2bb,0,0,0,0,18,044bb75e411,044bb75e411
73,73,0,"iSTATE2",0,3bdd,b2bb,0,0,0,0,18,044bb75e411,044bb75e411
74,74,0,"iSTATE2",0,3bdd,b2bb,0,0,0,0,18,044bb75e411,044bb75e411
75,75,0,"iSTATE3",0,3bdd,b2bb,0,0,0,0,18,0a2dd3ac8c8,044bb75e411
76,76,0,"iSTATE3",0,3bdd,b2bb,0,0,0,0,18,0a2dd3ac8c8,044bb75e411
77,77,0,"iSTATE3",0,3bdd,b2bb,0,0,0,0,18,0a2dd3ac8c8,044bb75e411
78,78,0,"iSTATE4",0,3bdd,b2bb,0,0,0,1,18,0a2dd3ac8c8,0a2dd3ac8c8
79,79,0,"iSTATE4",0,3bdd,b2bb,0,0,0,0,18,0a2dd3ac8c8,0a2dd3ac8c8
80,80,0,"iSTATE4",0,3bdd,b2bb,0,0,0,0,18,0a2dd3ac8c8,0a2dd3ac8c8
81,81,0,"iSTATE4",0,3bdd,b2bb,0,0,0,0,18,0a2dd3ac8c8,0a2dd3ac8c8
82,82,0,"iSTATE4",0,3bdd,b2bb,0,0,0,0,18,0a2dd3ac8c8,0a2dd3ac8c8
83,83,0,"iSTATE4",0,3bdd,b2bb,0,0,0,0,18,0a2dd3ac8c8,0a2dd3ac8c8
84,84,0,"iSTATE4",0,3bdd,b2bb,0,0,0,0,18,0a2dd3ac8c8,0a2dd3ac8c8
85,85,0,"iSTATE4",0,3bdd,b2bb,0,0,0,0,18,0a2dd3ac8c8,0a2dd3ac8c8
86,86,0,"iSTATE4",0,3bdd,b2bb,0,0,0,0,18,0a2dd3ac8c8,0a2dd3ac8c8
87,87,0,"iSTATE4",0,3bdd,b2bb,0,0,0,0,18,0a2dd3ac8c8,0a2dd3ac8c8
88,88,0,"iSTATE4",0,3bdd,b2bb,0,0,0,0,18,0a2dd3ac8c8,0a2dd3ac8c8
89,89,0,"iSTATE4",0,3bdd,b2bb,0,0,0,0,18,0a2dd3ac8c8,0a2dd3ac8c8
90,90,0,"iSTATE4",0,3bdd,b2bb,0,0,0,0,18,0a2dd3ac8c8,0a2dd3ac8c8
91,91,0,"iSTATE4",0,3bdd,b2bb,0,0,0,0,18,0a2dd3ac8c8,0a2dd3ac8c8
92,92,0,"iSTATE4",0,3bdd,b2bb,0,0,0,0,18,0a2dd3ac8c8,0a2dd3ac8c8
93,93,0,"iSTATE4",0,3bdd,b2bb,0,0,0,0,18,0a2dd3ac8c8,0a2dd3ac8c8
94,94,0,"iSTATE4",0,3bdd,b2bb,0,0,0,0,18,0a2dd3ac8c8,0a2dd3ac8c8
95,95,0,"iSTATE4",0,3bdd,b2bb,0,0,0,0,18,0a2dd3ac8c8,0a2dd3ac8c8
96,96,0,"iSTATE4",0,3bdd,b2bb,0,0,0,0,18,0a2dd3ac8c8,0a2dd3ac8c8
97,97,0,"iSTATE4",0,3bdd,b2bb,0,0,0,0,18,0a2dd3ac8c8,0a2dd3ac8c8
98,98,0,"iSTATE4",0,3bdd,7819,1,0,0,0,18,0a2dd3ac8c8,0a2dd3ac8c8
99,99,0,"iSTATE5",0,3bdd,7819,0,0,0,0,18,0a2dd3ac8c8,0a2dd3ac8c8
100,100,0,"iSTATE6",0,3bdd,7819,0,0,0,0,18,0a2dd3ac8c8,0a2dd3ac8c8
101,101,0,"iSTATE",0,3bdd,7819,0,0,0,0,18,0a2dd3ac8c8,0a2dd3ac8c8
102,102,0,"iSTATE",0,3bdd,7819,0,0,0,0,18,0a2dd3ac8c8,0a2dd3ac8c8
103,103,0,"iSTATE0",0,3bdd,7819,0,0,0,0,18,0a2dd3ac8c8,0a2dd3ac8c8
104,104,0,"iSTATE1",1,3bdd,7819,0,0,0,0,18,0a2dd3ac8c8,0a2dd3ac8c8
105,105,0,"iSTATE1",1,3bdd,7819,0,0,0,0,18,0a2dd3ac8c8,0a2dd3ac8c8
106,106,0,"iSTATE2",1,9dce,7819,0,0,0,0,18,0a2dd3ac8c8,0a2dd3ac8c8
107,107,0,"iSTATE2",1,9dce,7819,0,0,0,0,18,0a2dd3ac8c8,0a2dd3ac8c8
108,108,0,"iSTATE2",1,9dce,7819,0,0,0,0,18,0a2dd3ac8c8,0a2dd3ac8c8
109,109,0,"iSTATE3",1,9dce,7819,0,0,0,0,18,031ce42a70c,0a2dd3ac8c8
110,110,0,"iSTATE3",1,9dce,7819,0,0,0,0,18,031ce42a70c,0a2dd3ac8c8
111,111,0,"iSTATE3",1,9dce,7819,0,0,0,0,18,031ce42a70c,0a2dd3ac8c8
112,112,0,"iSTATE4",1,9dce,7819,0,0,0,1,18,031ce42a70c,031ce42870c
113,113,0,"iSTATE4",1,9dce,7819,0,0,0,0,18,031ce42a70c,031ce42870c
114,114,0,"iSTATE4",1,9dce,7819,0,0,0,0,18,031ce42a70c,031ce42870c
115,115,0,"iSTATE4",1,9dce,7819,0,0,0,0,18,031ce42a70c,031ce42870c
116,116,0,"iSTATE4",1,9dce,7819,0,0,0,0,18,031ce42a70c,031ce42870c
117,117,0,"iSTATE4",1,9dce,7819,0,0,0,0,18,031ce42a70c,031ce42870c
118,118,0,"iSTATE4",1,9dce,7819,0,0,0,0,18,031ce42a70c,031ce42870c
119,119,0,"iSTATE4",1,9dce,7819,0,0,0,0,18,031ce42a70c,031ce42870c
120,120,0,"iSTATE4",1,9dce,7819,0,0,0,0,18,031ce42a70c,031ce42870c
121,121,0,"iSTATE4",1,9dce,7819,0,0,0,0,18,031ce42a70c,031ce42870c
122,122,0,"iSTATE4",1,9dce,7819,0,0,0,0,18,031ce42a70c,031ce42870c
123,123,0,"iSTATE4",1,9dce,7819,0,0,0,0,18,031ce42a70c,031ce42870c
124,124,0,"iSTATE4",1,9dce,7819,0,0,0,0,18,031ce42a70c,031ce42870c
125,125,0,"iSTATE4",1,9dce,7819,0,0,0,0,18,031ce42a70c,031ce42870c
126,126,0,"iSTATE4",1,9dce,7819,0,0,0,0,18,031ce42a70c,031ce42870c
127,127,0,"iSTATE4",1,9dce,7819,0,0,0,0,18,031ce42a70c,031ce42870c
128,128,0,"iSTATE4",1,9dce,7819,0,0,0,0,18,031ce42a70c,031ce42870c
129,129,0,"iSTATE4",1,9dce,7819,0,0,0,0,18,031ce42a70c,031ce42870c
130,130,0,"iSTATE4",1,9dce,7819,0,0,0,0,18,031ce42a70c,031ce42870c
131,131,0,"iSTATE4",1,9dce,7819,0,0,0,0,18,031ce42a70c,031ce42870c
132,132,0,"iSTATE4",1,9dce,3b6c,1,0,0,0,18,031ce42a70c,031ce42870c
133,133,0,"iSTATE5",1,9dce,3b6c,0,0,0,0,18,031ce42a70c,031ce42870c
134,134,0,"iSTATE6",1,9dce,3b6c,0,0,0,0,18,031ce42a70c,031ce42870c
135,135,0,"iSTATE",1,9dce,3b6c,0,0,0,0,18,031ce42a70c,031ce42870c
136,136,0,"iSTATE",1,9dce,3b6c,0,0,0,0,18,031ce42a70c,031ce42870c
137,137,0,"iSTATE0",1,9dce,3b6c,0,0,0,0,18,031ce42a70c,031ce42870c
138,138,0,"iSTATE1",0,9dce,3b6c,0,0,0,0,18,031ce42a70c,031ce42870c
139,139,0,"iSTATE1",0,9dce,3b6c,0,0,0,0,18,031ce42a70c,031ce42870c
140,140,0,"iSTATE2",0,cec7,3b6c,0,0,0,0,18,031ce42a70c,031ce42870c
141,141,0,"iSTATE2",0,cec7,3b6c,0,0,0,0,18,031ce42a70c,031ce42870c
142,142,0,"iSTATE2",0,cec7,3b6c,0,0,0,0,18,031ce42a70c,031ce42870c
143,143,0,"iSTATE3",0,cec7,3b6c,0,0,0,0,18,0fac7c0c669,031ce42870c
144,144,0,"iSTATE3",0,cec7,3b6c,0,0,0,0,18,0fac7c0c669,031ce42870c
145,145,0,"iSTATE3",0,cec7,3b6c,0,0,0,0,18,0fac7c0c669,031ce42870c
146,146,0,"iSTATE4",0,cec7,3b6c,0,0,0,1,18,0fac7c0c669,0fac7c0c669
147,147,0,"iSTATE4",0,cec7,3b6c,0,0,0,0,18,0fac7c0c669,0fac7c0c669
148,148,0,"iSTATE4",0,cec7,3b6c,0,0,0,0,18,0fac7c0c669,0fac7c0c669
149,149,0,"iSTATE4",0,cec7,3b6c,0,0,0,0,18,0fac7c0c669,0fac7c0c669
150,150,0,"iSTATE4",0,cec7,3b6c,0,0,0,0,18,0fac7c0c669,0fac7c0c669
151,151,0,"iSTATE4",0,cec7,3b6c,0,0,0,0,18,0fac7c0c669,0fac7c0c669
152,152,0,"iSTATE4",0,cec7,3b6c,0,0,0,0,18,0fac7c0c669,0fac7c0c669
153,153,0,"iSTATE4",0,cec7,3b6c,0,0,0,0,18,0fac7c0c669,0fac7c0c669
154,154,0,"iSTATE4",0,cec7,3b6c,0,0,0,0,18,0fac7c0c669,0fac7c0c669
155,155,0,"iSTATE4",0,cec7,3b6c,0,0,0,0,18,0fac7c0c669,0fac7c0c669
156,156,0,"iSTATE4",0,cec7,3b6c,0,0,0,0,18,0fac7c0c669,0fac7c0c669
157,157,0,"iSTATE4",0,cec7,3b6c,0,0,0,0,18,0fac7c0c669,0fac7c0c669
158,158,0,"iSTATE4",0,cec7,3b6c,0,0,0,0,18,0fac7c0c669,0fac7c0c669
159,159,0,"iSTATE4",0,cec7,3b6c,0,0,0,0,18,0fac7c0c669,0fac7c0c669
160,160,0,"iSTATE4",0,cec7,3b6c,0,0,0,0,18,0fac7c0c669,0fac7c0c669
161,161,0,"iSTATE4",0,cec7,3b6c,0,0,0,0,18,0fac7c0c669,0fac7c0c669
162,162,0,"iSTATE4",0,cec7,3b6c,0,0,0,0,18,0fac7c0c669,0fac7c0c669
163,163,0,"iSTATE4",0,cec7,3b6c,0,0,0,0,18,0fac7c0c669,0fac7c0c669
164,164,0,"iSTATE4",0,cec7,3b6c,0,0,0,0,18,0fac7c0c669,0fac7c0c669
165,165,0,"iSTATE4",0,cec7,3b6c,0,0,0,0,18,0fac7c0c669,0fac7c0c669
166,166,0,"iSTATE4",0,cec7,99c7,1,0,0,0,18,0fac7c0c669,0fac7c0c669
167,167,0,"iSTATE5",0,cec7,99c7,0,0,1,0,18,0fac7c0c669,0fac7c0c669
168,168,0,"iSTATE6",0,cec7,99c7,0,0,1,0,18,0fac7c0c669,0fac7c0c669
169,169,0,"iSTATE",0,cec7,99c7,0,0,1,0,18,0fac7c0c669,0fac7c0c669
170,170,0,"iSTATE",0,cec7,99c7,0,0,1,0,18,0fac7c0c669,0fac7c0c669
171,171,0,"iSTATE0",0,cec7,99c7,0,0,1,0,18,0fac7c0c669,0fac7c0c669
172,172,0,"iSTATE1",1,cec7,99c7,0,0,1,0,18,0fac7c0c669,0fac7c0c669
173,173,0,"iSTATE1",1,cec7,99c7,0,0,1,0,18,0fac7c0c669,0fac7c0c669
174,174,0,"iSTATE2",1,e743,99c7,0,0,1,0,18,0fac7c0c669,0fac7c0c669
175,175,0,"iSTATE2",1,e743,99c7,0,0,1,0,18,0fac7c0c669,0fac7c0c669
176,176,0,"iSTATE2",1,e743,99c7,0,0,1,0,18,0fac7c0c669,0fac7c0c669
177,177,0,"iSTATE3",1,e743,99c7,0,0,1,0,18,05d4385a5c2,0fac7c0c669
178,178,0,"iSTATE3",1,e743,99c7,0,0,1,0,18,05d4385a5c2,0fac7c0c669
179,179,0,"iSTATE3",1,e743,99c7,0,0,1,0,18,05d4385a5c2,0fac7c0c669
180,180,0,"iSTATE4",1,e743,99c7,0,0,1,1,18,05d4385a5c2,05d6385a5c2
181,181,0,"iSTATE4",1,e743,99c7,0,0,1,0,18,05d4385a5c2,05d6385a5c2
182,182,0,"iSTATE4",1,e743,99c7,0,0,1,0,18,05d4385a5c2,05d6385a5c2
183,183,0,"iSTATE4",1,e743,99c7,0,0,1,0,18,05d4385a5c2,05d6385a5c2
184,184,0,"iSTATE4",1,e743,99c7,0,0,1,0,18,05d4385a5c2,05d6385a5c2
185,185,0,"iSTATE4",1,e743,99c7,0,0,1,0,18,05d4385a5c2,05d6385a5c2
186,186,0,"iSTATE4",1,e743,99c7,0,0,1,0,18,05d4385a5c2,05d6385a5c2
187,187,0,"iSTATE4",1,e743,99c7,0,0,1,0,18,05d4385a5c2,05d6385a5c2
188,188,0,"iSTATE4",1,e743,99c7,0,0,1,0,18,05d4385a5c2,05d6385a5c2
189,189,0,"iSTATE4",1,e743,99c7,0,0,1,0,18,05d4385a5c2,05d6385a5c2
190,190,0,"iSTATE4",1,e743,99c7,0,0,1,0,18,05d4385a5c2,05d6385a5c2
191,191,0,"iSTATE4",1,e743,99c7,0,0,1,0,18,05d4385a5c2,05d6385a5c2
192,192,0,"iSTATE4",1,e743,99c7,0,0,1,0,18,05d4385a5c2,05d6385a5c2
193,193,0,"iSTATE4",1,e743,99c7,0,0,1,0,18,05d4385a5c2,05d6385a5c2
194,194,0,"iSTATE4",1,e743,99c7,0,0,1,0,18,05d4385a5c2,05d6385a5c2
195,195,0,"iSTATE4",1,e743,99c7,0,0,1,0,18,05d4385a5c2,05d6385a5c2
196,196,0,"iSTATE4",1,e743,99c7,0,0,1,0,18,05d4385a5c2,05d6385a5c2
197,197,0,"iSTATE4",1,e743,99c7,0,0,1,0,18,05d4385a5c2,05d6385a5c2
198,198,0,"iSTATE4",1,e743,99c7,0,0,1,0,18,05d4385a5c2,05d6385a5c2
199,199,0,"iSTATE4",1,e743,99c7,0,0,1,0,18,05d4385a5c2,05d6385a5c2
200,200,0,"iSTATE4",1,e743,1963,1,0,1,0,18,05d4385a5c2,05d6385a5c2
201,201,0,"iSTATE5",1,e743,1963,0,0,0,0,18,05d4385a5c2,05d6385a5c2
202,202,0,"iSTATE6",1,e743,1963,0,0,0,0,18,05d4385a5c2,05d6385a5c2
203,203,0,"iSTATE",1,e743,1963,0,0,0,0,18,05d4385a5c2,05d6385a5c2
204,204,0,"iSTATE",1,e743,1963,0,0,0,0,18,05d4385a5c2,05d6385a5c2
205,205,0,"iSTATE0",1,e743,1963,0,0,0,0,18,05d4385a5c2,05d6385a5c2
206,206,0,"iSTATE1",0,e743,1963,0,0,0,0,18,05d4385a5c2,05d6385a5c2
207,207,0,"iSTATE1",0,e743,1963,0,0,0,0,18,05d4385a5c2,05d6385a5c2
208,208,0,"iSTATE2",0,f381,1963,0,0,0,0,18,05d4385a5c2,05d6385a5c2
209,209,0,"iSTATE2",0,f381,1963,0,0,0,0,18,05d4385a5c2,05d6385a5c2
210,210,0,"iSTATE2",0,f381,1963,0,0,0,0,18,05d4385a5c2,05d6385a5c2
211,211,0,"iSTATE3",0,f381,1963,0,0,0,0,18,08f81e21589,05d6385a5c2
212,212,0,"iSTATE3",0,f381,1963,0,0,0,0,18,08f81e21589,05d6385a5c2
213,213,0,"iSTATE3",0,f381,1963,0,0,0,0,18,08f81e21589,05d6385a5c2
214,214,0,"iSTATE4",0,f381,1963,0,0,0,1,18,08f81e21589,08f81e21589
215,215,0,"iSTATE4",0,f381,1963,0,0,0,0,18,08f81e21589,08f81e21589
216,216,0,"iSTATE4",0,f381,1963,0,0,0,0,18,08f81e21589,08f81e21589
217,217,0,"iSTATE4",0,f381,1963,0,0,0,0,18,08f81e21589,08f81e21589
218,218,0,"iSTATE4",0,f381,1963,0,0,0,0,18,08f81e21589,08f81e21589
219,219,0,"iSTATE4",0,f381,1963,0,0,0,0,18,08f81e21589,08f81e21589
220,220,0,"iSTATE4",0,f381,1963,0,0,0,0,18,08f81e21589,08f81e21589
221,221,0,"iSTATE4",0,f381,1963,0,0,0,0,18,08f81e21589,08f81e21589
222,222,0,"iSTATE4",0,f381,1963,0,0,0,0,18,08f81e21589,08f81e21589
223,223,0,"iSTATE4",0,f381,1963,0,0,0,0,18,08f81e21589,08f81e21589
224,224,0,"iSTATE4",0,f381,1963,0,0,0,0,18,08f81e21589,08f81e21589
225,225,0,"iSTATE4",0,f381,1963,0,0,0,0,18,08f81e21589,08f81e21589
226,226,0,"iSTATE4",0,f381,1963,0,0,0,0,18,08f81e21589,08f81e21589
227,227,0,"iSTATE4",0,f381,1963,0,0,0,0,18,08f81e21589,08f81e21589
228,228,0,"iSTATE4",0,f381,1963,0,0,0,0,18,08f81e21589,08f81e21589
229,229,0,"iSTATE4",0,f381,1963,0,0,0,0,18,08f81e21589,08f81e21589
230,230,0,"iSTATE4",0,f381,1963,0,0,0,0,18,08f81e21589,08f81e21589
231,231,0,"iSTATE4",0,f381,1963,0,0,0,0,18,08f81e21589,08f81e21589
232,232,0,"iSTATE4",0,f381,1963,0,0,0,0,18,08f81e21589,08f81e21589
233,233,0,"iSTATE4",0,f381,1963,0,0,0,0,18,08f81e21589,08f81e21589
234,234,0,"iSTATE4",0,f381,0695,1,0,0,0,18,08f81e21589,08f81e21589
235,235,0,"iSTATE5",0,f381,0695,0,0,0,0,18,08f81e21589,08f81e21589
236,236,0,"iSTATE6",0,f381,0695,0,0,0,0,18,08f81e21589,08f81e21589
237,237,0,"iSTATE",0,f381,0695,0,0,0,0,18,08f81e21589,08f81e21589
238,238,0,"iSTATE",0,f381,0695,0,0,0,0,18,08f81e21589,08f81e21589
239,239,0,"iSTATE0",0,f381,0695,0,0,0,0,18,08f81e21589,08f81e21589
240,240,0,"iSTATE1",0,f381,0695,0,0,0,0,18,08f81e21589,08f81e21589
241,241,0,"iSTATE1",0,f381,0695,0,0,0,0,18,08f81e21589,08f81e21589
242,242,0,"iSTATE2",0,f9e0,0695,0,0,0,0,18,08f81e21589,08f81e21589
243,243,0,"iSTATE2",0,f9e0,0695,0,0,0,0,18,08f81e21589,08f81e21589
244,244,0,"iSTATE2",0,f9e0,0695,0,0,0,0,18,08f81e21589,08f81e21589
245,245,0,"iSTATE3",0,f9e0,0695,0,0,0,0,18,0e8e0a0c0f2,08f81e21589
246,246,0,"iSTATE3",0,f9e0,0695,0,0,0,0,18,0e8e0a0c0f2,08f81e21589
247,247,0,"iSTATE3",0,f9e0,0695,0,0,0,0,18,0e8e0a0c0f2,08f81e21589
248,248,0,"iSTATE4",0,f9e0,0695,0,0,0,1,18,0e8e0a0c0f2,0e8e0a0c0f2
249,249,0,"iSTATE4",0,f9e0,0695,0,0,0,0,18,0e8e0a0c0f2,0e8e0a0c0f2
250,250,0,"iSTATE4",0,f9e0,0695,0,0,0,0,18,0e8e0a0c0f2,0e8e0a0c0f2
251,251,0,"iSTATE4",0,f9e0,0695,0,0,0,0,18,0e8e0a0c0f2,0e8e0a0c0f2
252,252,0,"iSTATE4",0,f9e0,0695,0,0,0,0,18,0e8e0a0c0f2,0e8e0a0c0f2
253,253,0,"iSTATE4",0,f9e0,0695,0,0,0,0,18,0e8e0a0c0f2,0e8e0a0c0f2
254,254,0,"iSTATE4",0,f9e0,0695,0,0,0,0,18,0e8e0a0c0f2,0e8e0a0c0f2
255,255,0,"iSTATE4",0,f9e0,0695,0,0,0,0,18,0e8e0a0c0f2,0e8e0a0c0f2
256,256,0,"iSTATE4",0,f9e0,0695,0,0,0,0,18,0e8e0a0c0f2,0e8e0a0c0f2
257,257,0,"iSTATE4",0,f9e0,0695,0,0,0,0,18,0e8e0a0c0f2,0e8e0a0c0f2
258,258,0,"iSTATE4",0,f9e0,0695,0,0,0,0,18,0e8e0a0c0f2,0e8e0a0c0f2
259,259,0,"iSTATE4",0,f9e0,0695,0,0,0,0,18,0e8e0a0c0f2,0e8e0a0c0f2
260,260,0,"iSTATE4",0,f9e0,0695,0,0,0,0,18,0e8e0a0c0f2,0e8e0a0c0f2
261,261,0,"iSTATE4",0,f9e0,0695,0,0,0,0,18,0e8e0a0c0f2,0e8e0a0c0f2
262,262,0,"iSTATE4",0,f9e0,0695,0,0,0,0,18,0e8e0a0c0f2,0e8e0a0c0f2
263,263,0,"iSTATE4",0,f9e0,0695,0,0,0,0,18,0e8e0a0c0f2,0e8e0a0c0f2
264,264,0,"iSTATE4",0,f9e0,0695,0,0,0,0,18,0e8e0a0c0f2,0e8e0a0c0f2
265,265,0,"iSTATE4",0,f9e0,0695,0,0,0,0,18,0e8e0a0c0f2,0e8e0a0c0f2
266,266,0,"iSTATE4",0,f9e0,0695,0,0,0,0,18,0e8e0a0c0f2,0e8e0a0c0f2
267,267,0,"iSTATE4",0,f9e0,0695,0,0,0,0,18,0e8e0a0c0f2,0e8e0a0c0f2
268,268,0,"iSTATE4",0,f9e0,250c,1,0,0,0,18,0e8e0a0c0f2,0e8e0a0c0f2
269,269,0,"iSTATE5",0,f9e0,250c,0,0,0,0,18,0e8e0a0c0f2,0e8e0a0c0f2
270,270,0,"iSTATE6",0,f9e0,250c,0,0,0,0,18,0e8e0a0c0f2,0e8e0a0c0f2
271,271,0,"iSTATE",0,f9e0,250c,0,0,0,0,18,0e8e0a0c0f2,0e8e0a0c0f2
272,272,0,"iSTATE",0,f9e0,250c,0,0,0,0,18,0e8e0a0c0f2,0e8e0a0c0f2
273,273,0,"iSTATE0",0,f9e0,250c,0,0,0,0,18,0e8e0a0c0f2,0e8e0a0c0f2
274,274,0,"iSTATE1",1,f9e0,250c,0,0,0,0,18,0e8e0a0c0f2,0e8e0a0c0f2
275,275,0,"iSTATE1",1,f9e0,250c,0,0,0,0,18,0e8e0a0c0f2,0e8e0a0c0f2
276,276,0,"iSTATE2",1,7cf0,250c,0,0,0,0,18,0e8e0a0c0f2,0e8e0a0c0f2
277,277,0,"iSTATE2",1,7cf0,250c,0,0,0,0,18,0e8e0a0c0f2,0e8e0a0c0f2
278,278,0,"iSTATE2",1,7cf0,250c,0,0,0,0,18,0e8e0a0c0f2,0e8e0a0c0f2
279,279,0,"iSTATE3",1,7cf0,250c,0,0,0,0,18,074f0506759,0e8e0a0c0f2
280,280,0,"iSTATE3",1,7cf0,250c,0,0,0,0,18,074f0506759,0e8e0a0c0f2
281,281,0,"iSTATE3",1,7cf0,250c,0,0,0,0,18,074f0506759,0e8e0a0c0f2
282,282,0,"iSTATE4",1,7cf0,250c,0,0,0,1,18,074f0506759,074f0502759
283,283,0,"iSTATE4",1,7cf0,250c,0,0,0,0,18,074f0506759,074f0502759
284,284,0,"iSTATE4",1,7cf0,250c,0,0,0,0,18,074f0506759,074f0502759
285,285,0,"iSTATE4",1,7cf0,250c,0,0,0,0,18,074f0506759,074f0502759
286,286,0,"iSTATE4",1,7cf0,250c,0,0,0,0,18,074f0506759,074f0502759
287,287,0,"iSTATE4",1,7cf0,250c,0,0,0,0,18,074f0506759,074f0502759
288,288,0,"iSTATE4",1,7cf0,250c,0,0,0,0,18,074f0506759,074f0502759
289,289,0,"iSTATE4",1,7cf0,250c,0,0,0,0,18,074f0506759,074f0502759
290,290,0,"iSTATE4",1,7cf0,250c,0,0,0,0,18,074f0506759,074f0502759
291,291,0,"iSTATE4",1,7cf0,250c,0,0,0,0,18,074f0506759,074f0502759
292,292,0,"iSTATE4",1,7cf0,250c,0,0,0,0,18,074f0506759,074f0502759
293,293,0,"iSTATE4",1,7cf0,250c,0,0,0,0,18,074f0506759,074f0502759
294,294,0,"iSTATE4",1,7cf0,250c,0,0,0,0,18,074f0506759,074f0502759
